!JTI P/N: 2450AT18A100
!With Matching Circuit (1.0pF,2.7nH,3.9nH)
!Agilent N5230A: A.07.11.03
!Date: Friday, May 18, 2007 08:53:58
!Full 4 Port Ecal: S11(Full 4 Port(1,2,3,4)) 
!S1P File: Measurement: S11:

# Hz S  dB   R 50
1000000000  -2.231084e-001  -1.648741e+002 
1003750000  -2.585731e-001  -1.653700e+002 
1007500000  -2.594028e-001  -1.659331e+002 
1011250000  -2.567624e-001  -1.664919e+002 
1015000000  -2.619020e-001  -1.671247e+002 
1018750000  -2.526378e-001  -1.677057e+002 
1022500000  -2.620648e-001  -1.683598e+002 
1026250000  -2.644409e-001  -1.689090e+002 
1030000000  -2.625314e-001  -1.695292e+002 
1033750000  -2.669172e-001  -1.701192e+002 
1037500000  -2.642729e-001  -1.707307e+002 
1041250000  -2.656051e-001  -1.713095e+002 
1045000000  -2.731609e-001  -1.719215e+002 
1048750000  -2.597128e-001  -1.725299e+002 
1052500000  -2.578568e-001  -1.730572e+002 
1056250000  -2.506252e-001  -1.736526e+002 
1060000000  -2.526673e-001  -1.742016e+002 
1063750000  -2.584254e-001  -1.748285e+002 
1067500000  -2.739573e-001  -1.754598e+002 
1071250000  -2.693157e-001  -1.761776e+002 
1075000000  -2.784548e-001  -1.768126e+002 
1078750000  -2.617858e-001  -1.773937e+002 
1082500000  -2.567616e-001  -1.780059e+002 
1086250000  -2.614672e-001  -1.786211e+002 
1090000000  -2.673053e-001  -1.792972e+002 
1093750000  -2.677157e-001  -1.798745e+002 
1097500000  -2.750452e-001  1.795350e+002 
1101250000  -2.722164e-001  1.788794e+002 
1105000000  -2.591416e-001  1.781385e+002 
1108750000  -2.608255e-001  1.774235e+002 
1112500000  -2.572267e-001  1.768088e+002 
1116250000  -2.639282e-001  1.761773e+002 
1120000000  -2.690494e-001  1.756137e+002 
1123750000  -2.819763e-001  1.752087e+002 
1127500000  -2.948363e-001  1.746110e+002 
1131250000  -2.973343e-001  1.739420e+002 
1135000000  -3.108636e-001  1.733185e+002 
1138750000  -3.070951e-001  1.727493e+002 
1142500000  -3.119006e-001  1.721295e+002 
1146250000  -3.101713e-001  1.715431e+002 
1150000000  -2.922192e-001  1.709682e+002 
1153750000  -3.035693e-001  1.704380e+002 
1157500000  -2.982526e-001  1.698296e+002 
1161250000  -2.977465e-001  1.692821e+002 
1165000000  -2.986566e-001  1.686130e+002 
1168750000  -3.072203e-001  1.679788e+002 
1172500000  -2.953896e-001  1.672625e+002 
1176250000  -2.898223e-001  1.666838e+002 
1180000000  -2.827535e-001  1.660918e+002 
1183750000  -2.746738e-001  1.655386e+002 
1187500000  -2.622286e-001  1.648800e+002 
1191250000  -2.603892e-001  1.642217e+002 
1195000000  -2.532783e-001  1.635155e+002 
1198750000  -2.963011e-001  1.627953e+002 
1202500000  -2.868802e-001  1.620785e+002 
1206250000  -2.732431e-001  1.613623e+002 
1210000000  -2.873866e-001  1.606701e+002 
1213750000  -2.882408e-001  1.599525e+002 
1217500000  -2.869112e-001  1.592934e+002 
1221250000  -3.004017e-001  1.585821e+002 
1225000000  -3.202488e-001  1.582217e+002 
1228750000  -3.262243e-001  1.574962e+002 
1232500000  -3.397900e-001  1.567824e+002 
1236250000  -3.514469e-001  1.561284e+002 
1240000000  -3.605131e-001  1.554995e+002 
1243750000  -3.731703e-001  1.549114e+002 
1247500000  -3.091932e-001  1.543320e+002 
1251250000  -3.243934e-001  1.537723e+002 
1255000000  -3.366347e-001  1.531508e+002 
1258750000  -3.430906e-001  1.525829e+002 
1262500000  -3.369454e-001  1.519716e+002 
1266250000  -3.339465e-001  1.513867e+002 
1270000000  -3.342302e-001  1.507757e+002 
1273750000  -3.249788e-001  1.498520e+002 
1277500000  -3.158711e-001  1.492522e+002 
1281250000  -3.083326e-001  1.487201e+002 
1285000000  -2.999829e-001  1.480408e+002 
1288750000  -2.847488e-001  1.473859e+002 
1292500000  -2.808444e-001  1.466779e+002 
1296250000  -2.789302e-001  1.459420e+002 
1300000000  -3.321426e-001  1.452206e+002 
1303750000  -3.294937e-001  1.445519e+002 
1307500000  -3.221104e-001  1.438498e+002 
1311250000  -3.224245e-001  1.431508e+002 
1315000000  -3.365634e-001  1.424287e+002 
1318750000  -3.371426e-001  1.416481e+002 
1322500000  -3.461939e-001  1.412450e+002 
1326250000  -3.529343e-001  1.406238e+002 
1330000000  -3.624422e-001  1.398903e+002 
1333750000  -3.714847e-001  1.392654e+002 
1337500000  -3.783166e-001  1.385488e+002 
1341250000  -3.861121e-001  1.379063e+002 
1345000000  -3.910482e-001  1.372890e+002 
1348750000  -3.693047e-001  1.366124e+002 
1352500000  -3.776683e-001  1.358924e+002 
1356250000  -3.782373e-001  1.352164e+002 
1360000000  -3.791470e-001  1.345482e+002 
1363750000  -3.662800e-001  1.339151e+002 
1367500000  -3.679692e-001  1.332236e+002 
1371250000  -3.648775e-001  1.326164e+002 
1375000000  -3.622578e-001  1.317282e+002 
1378750000  -3.623557e-001  1.309926e+002 
1382500000  -3.592212e-001  1.302547e+002 
1386250000  -3.546635e-001  1.295790e+002 
1390000000  -3.450128e-001  1.288471e+002 
1393750000  -3.462139e-001  1.281202e+002 
1397500000  -3.679553e-001  1.275137e+002 
1401250000  -3.722358e-001  1.266973e+002 
1405000000  -3.765893e-001  1.259046e+002 
1408750000  -3.818798e-001  1.251136e+002 
1412500000  -3.852303e-001  1.243530e+002 
1416250000  -4.018707e-001  1.236025e+002 
1420000000  -4.080646e-001  1.229032e+002 
1423750000  -3.994949e-001  1.226035e+002 
1427500000  -4.138231e-001  1.218325e+002 
1431250000  -4.489945e-001  1.211307e+002 
1435000000  -4.722441e-001  1.204881e+002 
1438750000  -4.980706e-001  1.198997e+002 
1442500000  -5.035244e-001  1.193159e+002 
1446250000  -5.084078e-001  1.187098e+002 
1450000000  -4.150881e-001  1.177471e+002 
1453750000  -4.202083e-001  1.171222e+002 
1457500000  -4.060833e-001  1.164974e+002 
1461250000  -3.972228e-001  1.158282e+002 
1465000000  -3.879457e-001  1.151869e+002 
1468750000  -3.748232e-001  1.144779e+002 
1472500000  -4.172436e-001  1.131702e+002 
1476250000  -3.901237e-001  1.123898e+002 
1480000000  -3.822989e-001  1.115923e+002 
1483750000  -3.637556e-001  1.107256e+002 
1487500000  -3.513904e-001  1.099194e+002 
1491250000  -3.518217e-001  1.090708e+002 
1495000000  -3.689466e-001  1.081839e+002 
1498750000  -4.292062e-001  1.076802e+002 
1502500000  -3.787090e-001  1.065187e+002 
1506250000  -4.697387e-001  1.058637e+002 
1510000000  -5.445273e-001  1.051498e+002 
1513750000  -5.863593e-001  1.044444e+002 
1517500000  -6.372421e-001  1.037124e+002 
1521250000  -6.650662e-001  1.029914e+002 
1525000000  -5.632082e-001  1.027417e+002 
1528750000  -5.628276e-001  1.019388e+002 
1532500000  -5.720254e-001  1.012106e+002 
1536250000  -5.600985e-001  1.005194e+002 
1540000000  -5.498768e-001  9.985120e+001 
1543750000  -5.422576e-001  9.915121e+001 
1547500000  -4.758349e-001  9.790365e+001 
1551250000  -4.779239e-001  9.730128e+001 
1555000000  -4.691035e-001  9.663798e+001 
1558750000  -4.624861e-001  9.592123e+001 
1562500000  -4.473687e-001  9.517130e+001 
1566250000  -4.198658e-001  9.433038e+001 
1570000000  -3.927051e-001  9.333372e+001 
1573750000  -4.918830e-001  9.230960e+001 
1577500000  -4.845873e-001  9.149796e+001 
1581250000  -4.818651e-001  9.067784e+001 
1585000000  -4.879230e-001  8.974593e+001 
1588750000  -5.013420e-001  8.892500e+001 
1592500000  -4.933678e-001  8.800054e+001 
1596250000  -5.201819e-001  8.744643e+001 
1600000000  -5.115520e-001  8.653835e+001 
1603750000  -5.236627e-001  8.569418e+001 
1607500000  -5.296270e-001  8.485956e+001 
1611250000  -5.310206e-001  8.404696e+001 
1615000000  -5.461208e-001  8.322102e+001 
1618750000  -5.535854e-001  8.238649e+001 
1622500000  -5.517714e-001  8.158382e+001 
1626250000  -5.687245e-001  8.072056e+001 
1630000000  -5.697472e-001  7.981197e+001 
1633750000  -5.825571e-001  7.898511e+001 
1637500000  -5.855547e-001  7.811053e+001 
1641250000  -5.907488e-001  7.726731e+001 
1645000000  -5.962710e-001  7.642933e+001 
1648750000  -6.115736e-001  7.554104e+001 
1652500000  -6.112944e-001  7.466217e+001 
1656250000  -6.162264e-001  7.378698e+001 
1660000000  -6.182135e-001  7.289631e+001 
1663750000  -6.325759e-001  7.203799e+001 
1667500000  -6.371480e-001  7.111345e+001 
1671250000  -6.459807e-001  7.022465e+001 
1675000000  -6.564570e-001  6.936536e+001 
1678750000  -6.559667e-001  6.840830e+001 
1682500000  -6.713716e-001  6.756148e+001 
1686250000  -6.789716e-001  6.665704e+001 
1690000000  -6.843053e-001  6.575172e+001 
1693750000  -6.897622e-001  6.486113e+001 
1697500000  -7.050199e-001  6.394629e+001 
1701250000  -7.114379e-001  6.300395e+001 
1705000000  -7.280592e-001  6.208625e+001 
1708750000  -7.316066e-001  6.120083e+001 
1712500000  -7.460069e-001  6.027043e+001 
1716250000  -7.463552e-001  5.938696e+001 
1720000000  -7.528316e-001  5.847959e+001 
1723750000  -7.617189e-001  5.758073e+001 
1727500000  -7.636585e-001  5.665134e+001 
1731250000  -7.745919e-001  5.568476e+001 
1735000000  -7.804167e-001  5.478228e+001 
1738750000  -7.906682e-001  5.385509e+001 
1742500000  -7.812660e-001  5.290918e+001 
1746250000  -7.956423e-001  5.194109e+001 
1750000000  -8.002834e-001  5.100106e+001 
1753750000  -8.152737e-001  5.008592e+001 
1757500000  -8.173918e-001  4.904929e+001 
1761250000  -8.217492e-001  4.814275e+001 
1765000000  -8.321303e-001  4.711664e+001 
1768750000  -8.456417e-001  4.615020e+001 
1772500000  -8.573564e-001  4.523462e+001 
1776250000  -8.540294e-001  4.425686e+001 
1780000000  -8.705680e-001  4.322293e+001 
1783750000  -8.789214e-001  4.224897e+001 
1787500000  -8.794721e-001  4.128235e+001 
1791250000  -8.954928e-001  4.027219e+001 
1795000000  -9.058143e-001  3.937843e+001 
1798750000  -9.187409e-001  3.838257e+001 
1802500000  -9.348282e-001  3.738558e+001 
1806250000  -9.365546e-001  3.641746e+001 
1810000000  -9.622717e-001  3.544069e+001 
1813750000  -9.609117e-001  3.444479e+001 
1817500000  -9.748238e-001  3.345079e+001 
1821250000  -9.768132e-001  3.246614e+001 
1825000000  -9.971307e-001  3.143864e+001 
1828750000  -9.973533e-001  3.046729e+001 
1832500000  -1.011679e+000  2.948009e+001 
1836250000  -1.013928e+000  2.838202e+001 
1840000000  -1.024075e+000  2.732095e+001 
1843750000  -1.035305e+000  2.625924e+001 
1847500000  -1.043215e+000  2.522597e+001 
1851250000  -1.049609e+000  2.412752e+001 
1855000000  -1.059217e+000  2.305852e+001 
1858750000  -1.077091e+000  2.195661e+001 
1862500000  -1.086229e+000  2.089800e+001 
1866250000  -1.095762e+000  1.983937e+001 
1870000000  -1.102344e+000  1.877889e+001 
1873750000  -1.109221e+000  1.766452e+001 
1877500000  -1.138396e+000  1.650820e+001 
1881250000  -1.140339e+000  1.535055e+001 
1885000000  -1.156791e+000  1.426993e+001 
1888750000  -1.168123e+000  1.313825e+001 
1892500000  -1.181076e+000  1.201148e+001 
1896250000  -1.187071e+000  1.093711e+001 
1900000000  -1.205277e+000  9.775940e+000 
1903750000  -1.205243e+000  8.607510e+000 
1907500000  -1.211967e+000  7.492653e+000 
1911250000  -1.215558e+000  6.262678e+000 
1915000000  -1.236585e+000  5.126370e+000 
1918750000  -1.245055e+000  3.931672e+000 
1922500000  -1.259941e+000  2.764110e+000 
1926250000  -1.262314e+000  1.561930e+000 
1930000000  -1.282665e+000  3.689351e-001 
1933750000  -1.294005e+000  -8.192984e-001 
1937500000  -1.303067e+000  -2.015537e+000 
1941250000  -1.320645e+000  -3.221911e+000 
1945000000  -1.331342e+000  -4.484489e+000 
1948750000  -1.347933e+000  -5.673207e+000 
1952500000  -1.357717e+000  -6.876031e+000 
1956250000  -1.377590e+000  -8.092274e+000 
1960000000  -1.387444e+000  -9.339298e+000 
1963750000  -1.405807e+000  -1.057381e+001 
1967500000  -1.419922e+000  -1.184815e+001 
1971250000  -1.439700e+000  -1.318245e+001 
1975000000  -1.458624e+000  -1.442838e+001 
1978750000  -1.477584e+000  -1.566166e+001 
1982500000  -1.484773e+000  -1.693245e+001 
1986250000  -1.501829e+000  -1.819619e+001 
1990000000  -1.525599e+000  -1.945226e+001 
1993750000  -1.543851e+000  -2.072165e+001 
1997500000  -1.568268e+000  -2.193772e+001 
2001250000  -1.581874e+000  -2.324389e+001 
2005000000  -1.605051e+000  -2.451987e+001 
2008750000  -1.626999e+000  -2.587356e+001 
2012500000  -1.650386e+000  -2.714912e+001 
2016250000  -1.682451e+000  -2.843732e+001 
2020000000  -1.710377e+000  -2.971000e+001 
2023750000  -1.733408e+000  -3.110329e+001 
2027500000  -1.757743e+000  -3.245227e+001 
2031250000  -1.778797e+000  -3.377292e+001 
2035000000  -1.812459e+000  -3.515211e+001 
2038750000  -1.843335e+000  -3.649923e+001 
2042500000  -1.892608e+000  -3.787833e+001 
2046250000  -1.918168e+000  -3.917822e+001 
2050000000  -1.958078e+000  -4.048849e+001 
2053750000  -1.975347e+000  -4.183336e+001 
2057500000  -2.002626e+000  -4.322352e+001 
2061250000  -2.039091e+000  -4.457863e+001 
2065000000  -2.067344e+000  -4.606904e+001 
2068750000  -2.111904e+000  -4.754979e+001 
2072500000  -2.173375e+000  -4.901012e+001 
2076250000  -2.220078e+000  -5.038091e+001 
2080000000  -2.249940e+000  -5.177039e+001 
2083750000  -2.287459e+000  -5.313118e+001 
2087500000  -2.328159e+000  -5.451264e+001 
2091250000  -2.361600e+000  -5.601830e+001 
2095000000  -2.390716e+000  -5.737596e+001 
2098750000  -2.427544e+000  -5.894227e+001 
2102500000  -2.474925e+000  -6.036869e+001 
2106250000  -2.528003e+000  -6.191285e+001 
2110000000  -2.582235e+000  -6.339647e+001 
2113750000  -2.644382e+000  -6.486655e+001 
2117500000  -2.704526e+000  -6.628555e+001 
2121250000  -2.753763e+000  -6.772384e+001 
2125000000  -2.812084e+000  -6.913429e+001 
2128750000  -2.853852e+000  -7.058572e+001 
2132500000  -2.909236e+000  -7.211581e+001 
2136250000  -2.962847e+000  -7.361192e+001 
2140000000  -3.024384e+000  -7.505045e+001 
2143750000  -3.084219e+000  -7.648168e+001 
2147500000  -3.139716e+000  -7.799289e+001 
2151250000  -3.200633e+000  -7.946636e+001 
2155000000  -3.266198e+000  -8.097957e+001 
2158750000  -3.334135e+000  -8.247074e+001 
2162500000  -3.402951e+000  -8.391243e+001 
2166250000  -3.471248e+000  -8.541085e+001 
2170000000  -3.535702e+000  -8.686198e+001 
2173750000  -3.620047e+000  -8.835123e+001 
2177500000  -3.691995e+000  -8.978976e+001 
2181250000  -3.760603e+000  -9.121959e+001 
2185000000  -3.823517e+000  -9.263060e+001 
2188750000  -3.888211e+000  -9.418727e+001 
2192500000  -3.963562e+000  -9.572052e+001 
2196250000  -4.031340e+000  -9.714204e+001 
2200000000  -4.096748e+000  -9.866610e+001 
2203750000  -4.158872e+000  -1.002636e+002 
2207500000  -4.246094e+000  -1.019273e+002 
2211250000  -4.336735e+000  -1.035177e+002 
2215000000  -4.440410e+000  -1.049515e+002 
2218750000  -4.521913e+000  -1.064571e+002 
2222500000  -4.610183e+000  -1.079293e+002 
2226250000  -4.698738e+000  -1.094228e+002 
2230000000  -4.777080e+000  -1.109290e+002 
2233750000  -4.849593e+000  -1.124697e+002 
2237500000  -4.934705e+000  -1.141468e+002 
2241250000  -5.029940e+000  -1.157361e+002 
2245000000  -5.124633e+000  -1.173215e+002 
2248750000  -5.210496e+000  -1.190188e+002 
2252500000  -5.314258e+000  -1.207869e+002 
2256250000  -5.429925e+000  -1.226336e+002 
2260000000  -5.559053e+000  -1.244611e+002 
2263750000  -5.720772e+000  -1.261354e+002 
2267500000  -5.862885e+000  -1.276686e+002 
2271250000  -5.994067e+000  -1.292838e+002 
2275000000  -6.132038e+000  -1.308910e+002 
2278750000  -6.287693e+000  -1.324596e+002 
2282500000  -6.427773e+000  -1.339751e+002 
2286250000  -6.560642e+000  -1.355970e+002 
2290000000  -6.703976e+000  -1.373086e+002 
2293750000  -6.854632e+000  -1.390291e+002 
2297500000  -7.019770e+000  -1.406877e+002 
2301250000  -7.189544e+000  -1.424627e+002 
2305000000  -7.359962e+000  -1.439710e+002 
2308750000  -7.505002e+000  -1.457934e+002 
2312500000  -7.665804e+000  -1.476451e+002 
2316250000  -7.824496e+000  -1.495411e+002 
2320000000  -8.040560e+000  -1.515195e+002 
2323750000  -8.282053e+000  -1.531745e+002 
2327500000  -8.477859e+000  -1.547395e+002 
2331250000  -8.657338e+000  -1.565102e+002 
2335000000  -8.868390e+000  -1.583502e+002 
2338750000  -9.109656e+000  -1.601290e+002 
2342500000  -9.324089e+000  -1.617836e+002 
2346250000  -9.517159e+000  -1.636430e+002 
2350000000  -9.723024e+000  -1.657184e+002 
2353750000  -1.000345e+001  -1.678308e+002 
2357500000  -1.028833e+001  -1.698605e+002 
2361250000  -1.060763e+001  -1.718349e+002 
2365000000  -1.092858e+001  -1.736663e+002 
2368750000  -1.127077e+001  -1.755200e+002 
2372500000  -1.159680e+001  -1.771981e+002 
2376250000  -1.194161e+001  -1.791148e+002 
2380000000  -1.233831e+001  1.790398e+002 
2383750000  -1.275233e+001  1.776312e+002 
2387500000  -1.308937e+001  1.761480e+002 
2391250000  -1.346360e+001  1.743139e+002 
2395000000  -1.390843e+001  1.721930e+002 
2398750000  -1.440263e+001  1.706888e+002 
2402500000  -1.483869e+001  1.691821e+002 
2406250000  -1.529230e+001  1.674859e+002 
2410000000  -1.572888e+001  1.656582e+002 
2413750000  -1.618996e+001  1.632195e+002 
2417500000  -1.678205e+001  1.602519e+002 
2421250000  -1.749438e+001  1.575247e+002 
2425000000  -1.828044e+001  1.555079e+002 
2428750000  -1.898724e+001  1.532445e+002 
2432500000  -1.978690e+001  1.499725e+002 
2436250000  -2.078565e+001  1.460107e+002 
2440000000  -2.213695e+001  1.428557e+002 
2443750000  -2.340791e+001  1.413525e+002 
2447500000  -2.464675e+001  1.382823e+002 
2451250000  -2.604807e+001  1.333082e+002 
2455000000  -2.764176e+001  1.256325e+002 
2458750000  -2.993143e+001  1.132786e+002 
2462500000  -3.258826e+001  9.628719e+001 
2466250000  -3.525497e+001  6.998268e+001 
2470000000  -3.490708e+001  3.778910e+001 
2473750000  -3.202926e+001  1.004315e+001 
2477500000  -2.929839e+001  -9.899233e+000 
2481250000  -2.751868e+001  -2.390499e+001 
2485000000  -2.628407e+001  -3.184226e+001 
2488750000  -2.532710e+001  -3.538880e+001 
2492500000  -2.419821e+001  -3.722373e+001 
2496250000  -2.310468e+001  -3.874266e+001 
2500000000  -2.186667e+001  -4.078757e+001 
2503750000  -2.092565e+001  -4.405671e+001 
2507500000  -2.023014e+001  -4.691238e+001 
2511250000  -1.959479e+001  -4.896159e+001 
2515000000  -1.904559e+001  -5.055964e+001 
2518750000  -1.850453e+001  -5.202879e+001 
2522500000  -1.804433e+001  -5.341723e+001 
2526250000  -1.755493e+001  -5.429673e+001 
2530000000  -1.699700e+001  -5.568871e+001 
2533750000  -1.656288e+001  -5.697223e+001 
2537500000  -1.610158e+001  -5.816223e+001 
2541250000  -1.566027e+001  -5.978159e+001 
2545000000  -1.530937e+001  -6.171009e+001 
2548750000  -1.504515e+001  -6.306534e+001 
2552500000  -1.475166e+001  -6.415231e+001 
2556250000  -1.447387e+001  -6.489108e+001 
2560000000  -1.409664e+001  -6.588895e+001 
2563750000  -1.382648e+001  -6.748296e+001 
2567500000  -1.361539e+001  -6.831950e+001 
2571250000  -1.330139e+001  -6.875727e+001 
2575000000  -1.298535e+001  -6.969312e+001 
2578750000  -1.266601e+001  -7.108241e+001 
2582500000  -1.244020e+001  -7.249690e+001 
2586250000  -1.224464e+001  -7.349292e+001 
2590000000  -1.201670e+001  -7.438647e+001 
2593750000  -1.171954e+001  -7.530789e+001 
2597500000  -1.151270e+001  -7.663689e+001 
2601250000  -1.136930e+001  -7.767348e+001 
2605000000  -1.119263e+001  -7.810554e+001 
2608750000  -1.093986e+001  -7.857776e+001 
2612500000  -1.066495e+001  -7.933965e+001 
2616250000  -1.040686e+001  -8.041732e+001 
2620000000  -1.017394e+001  -8.159351e+001 
2623750000  -9.935466e+000  -8.242136e+001 
2627500000  -9.671916e+000  -8.342421e+001 
2631250000  -9.406281e+000  -8.455177e+001 
2635000000  -9.162683e+000  -8.583979e+001 
2638750000  -8.949009e+000  -8.704681e+001 
2642500000  -8.731061e+000  -8.806213e+001 
2646250000  -8.537484e+000  -8.932208e+001 
2650000000  -8.307386e+000  -9.067009e+001 
2653750000  -8.063850e+000  -9.188073e+001 
2657500000  -7.832812e+000  -9.327123e+001 
2661250000  -7.619694e+000  -9.493662e+001 
