!Created with skrf (http://scikit-rf.org).
# Hz S RI R 50.0 
!freq ReS11 ImS11
1000000000.0 -0.9507521223483206 -0.22240761368225065
1003750000.0 -0.9488677141327195 -0.2138335439074749
1007500000.0 -0.9506593128092586 -0.20498495912608442
1011250000.0 -0.9527147363092792 -0.19623823758215814
1015000000.0 -0.9541070521464905 -0.18614190434992978
1018750000.0 -0.9567450854674426 -0.17708742634637825
1022500000.0 -0.9575481274195135 -0.1664980739666616
1026250000.0 -0.9587139554374493 -0.15765880263863447
1030000000.0 -0.9604138002742388 -0.14772471549187965
1033750000.0 -0.9612853732316015 -0.13813799240353536
1037500000.0 -0.9628489839892469 -0.1282690058962664
1041250000.0 -0.9638320608550801 -0.1188333688747342
1045000000.0 -0.9641146722690902 -0.10875818125260694
1048750000.0 -0.9665368464354253 -0.09892707040017766
1052500000.0 -0.9675101471459908 -0.09025034935551983
1056250000.0 -0.9690724957278024 -0.08046755216173875
1060000000.0 -0.9694853295620536 -0.07133268400652162
1063750000.0 -0.9694761895666668 -0.06086264214023425
1067500000.0 -0.9682860305532737 -0.0502489470269653
1071250000.0 -0.9692251913485151 -0.038263151366606685
1075000000.0 -0.9684776586873235 -0.02757062933131741
1078750000.0 -0.9704491597868732 -0.01778684617791694
1082500000.0 -0.9710415026048159 -0.007413463074161311
1086250000.0 -0.9704411468738343 0.0030429925620961834
1090000000.0 -0.9695714768427002 0.014549502570431985
1093750000.0 -0.9692270441438209 0.02442514691983534
1097500000.0 -0.9679924298519504 0.0345173158418659
1101250000.0 -0.9677243355435817 0.04579680087829595
1105000000.0 -0.9683792825847746 0.058661907166220634
1108750000.0 -0.9672328457170865 0.07102360686592153
1112500000.0 -0.9666877784966785 0.08174584219496761
1116250000.0 -0.9648157174026062 0.0926713010099625
1120000000.0 -0.9631281864570477 0.10245248334447121
1123750000.0 -0.960788063397052 0.10938233256634351
1127500000.0 -0.9579474349757986 0.11963847214020727
1131250000.0 -0.9559839085031752 0.1312966262996334
1135000000.0 -0.9527308985977384 0.1419790512071816
1138750000.0 -0.9514881210018948 0.15204562791179219
1142500000.0 -0.9489865285362638 0.16284055960119936
1146250000.0 -0.9472153209579709 0.1732067735105216
1150000000.0 -0.947237227033411 0.1837806122154138
1153750000.0 -0.943929959472257 0.19289700454914627
1157500000.0 -0.9421333207489286 0.2038089418467447
1161250000.0 -0.9399037094548541 0.21354678795003207
1165000000.0 -0.9368599539859392 0.22539444927456592
1168750000.0 -0.9329264192989508 0.23640274063968436
1172500000.0 -0.9308038971709018 0.24950572986256042
1176250000.0 -0.9284777778270055 0.2600182926806804
1180000000.0 -0.9261277203748064 0.2708428305998467
1183750000.0 -0.9239791991899116 0.28104574123206566
1187500000.0 -0.9216075804066276 0.29331257768848173
1191250000.0 -0.9178283180015632 0.3051924414467937
1195000000.0 -0.9141883248056312 0.3181523436937683
1198750000.0 -0.9044038502190165 0.32918095462887803
1202500000.0 -0.9005515431506602 0.34238930200775075
1206250000.0 -0.8969852217492775 0.3558168469699425
1210000000.0 -0.8901560391325469 0.36748451198473847
1213750000.0 -0.8844766021497188 0.3802178739901788
1217500000.0 -0.8793080674980125 0.3920216655101588
1221250000.0 -0.8718079670007128 0.4039107268601395
1225000000.0 -0.8663846861058264 0.40925815404480526
1228750000.0 -0.859313372463443 0.42169304600713614
1232500000.0 -0.8512624766535066 0.43341665681857977
1236250000.0 -0.8437813396376236 0.4441459927189845
1240000000.0 -0.8366578379926444 0.4545393444531511
1243750000.0 -0.8293679694173103 0.4639427965272451
1247500000.0 -0.83063649920002 0.4782557484055331
1251250000.0 -0.8230270749798037 0.48698480308445585
1255000000.0 -0.8149632253708573 0.49689273811235957
1258750000.0 -0.8079658483590317 0.5062323279218953
1262500000.0 -0.8017378918991762 0.5171737967126353
1266250000.0 -0.7952872476770583 0.5274152871174294
1270000000.0 -0.7880083926843693 0.53780760580158
1273750000.0 -0.7778286356538406 0.5540869829998512
1277500000.0 -0.7712696255186212 0.5649502376705504
1281250000.0 -0.7652182197103556 0.5745512595846998
1285000000.0 -0.7572056467777243 0.5866078642589408
1288750000.0 -0.75002437625976 0.598829386670073
1292500000.0 -0.7406885240017109 0.6108784897691947
1296250000.0 -0.7305076780917719 0.6231142880047653
1300000000.0 -0.7145401833114138 0.629843955376186
1303750000.0 -0.7049469828701816 0.6407836303743802
1307500000.0 -0.6951200735281429 0.652614426177203
1311250000.0 -0.68431506035177 0.6635473067481142
1315000000.0 -0.6715481634566074 0.6732994806001518
1318750000.0 -0.6589714484416852 0.6851392023405583
1322500000.0 -0.6513540875854865 0.6903941361602268
1326250000.0 -0.6403558648073826 0.6989962297034056
1330000000.0 -0.6270707190710446 0.7087662514426288
1333750000.0 -0.6154315400415673 0.7168692668868297
1337500000.0 -0.6022628605263979 0.7263367837662124
1341250000.0 -0.590077202949169 0.7345004006608591
1345000000.0 -0.5784143290413188 0.742498264068391
1348750000.0 -0.5678327876283042 0.7542872295508924
1352500000.0 -0.5536138200296139 0.7629346941694051
1356250000.0 -0.5406509294262019 0.7717607618111524
1360000000.0 -0.527597442533718 0.7802747576599736
1363750000.0 -0.5161161870773094 0.7899254304500746
1367500000.0 -0.5021303060196602 0.7982938348117301
1371250000.0 -0.48996139103213965 0.806101208881167
1375000000.0 -0.471957085073957 0.8168835927829705
1378750000.0 -0.4565174778512019 0.8253026818233918
1382500000.0 -0.44102296625451315 0.833940887042717
1386250000.0 -0.4266806598105995 0.8418931347834311
1390000000.0 -0.41126760903151854 0.8509158463976412
1393750000.0 -0.3950059201077979 0.8581226829510082
1397500000.0 -0.3798917914836051 0.8610011332657942
1401250000.0 -0.36115441270075893 0.8680154692272801
1405000000.0 -0.34270903776367306 0.8744512668956917
1408750000.0 -0.32404280218827963 0.880378208547219
1412500000.0 -0.30596586704348794 0.8859992196028275
1416250000.0 -0.28730962531038984 0.8892043664902998
1420000000.0 -0.2701945717348528 0.8932799176877035
1423750000.0 -0.2628281154926009 0.8967413664107321
1427500000.0 -0.24348667330918683 0.8995661051062028
1431250000.0 -0.2249006399962507 0.8983881303508723
1435000000.0 -0.20816283621571469 0.8983858257610664
1438750000.0 -0.19261909546659578 0.8974272839373909
1442500000.0 -0.17780134307842857 0.8993576192082873
1446250000.0 -0.16240018746885443 0.9012329946512746
1450000000.0 -0.14066490060793904 0.9197057239156609
1453750000.0 -0.12436530679573013 0.9210160378331788
1457500000.0 -0.1083441681391997 0.9251566003319768
1461250000.0 -0.09098229133906968 0.9282884227444496
1465000000.0 -0.0741739579122771 0.9311317256426104
1468750000.0 -0.055575746718746204 0.9344146254315586
1472500000.0 -0.02158519386371847 0.9285670479941901
1476250000.0 -0.0009628688825694589 0.9331168068733039
1480000000.0 0.020270597684650046 0.9340320777771202
1483750000.0 0.043457180888825636 0.9361785494594316
1487500000.0 0.06522813892207037 0.9368537385414469
1491250000.0 0.08799473807700611 0.9347871931343623
1495000000.0 0.11140226039347775 0.9292605742738858
1498750000.0 0.12402440237231124 0.9173807438683268
1502500000.0 0.15572147115941898 0.9209775132778661
1506250000.0 0.1706323970955801 0.9027496585291067
1510000000.0 0.18697187489469438 0.8867902148865731
1513750000.0 0.20381762659833086 0.8759353935574665
1517500000.0 0.22062308084712787 0.8632200620022255
1521250000.0 0.23777684054161852 0.8538874221303198
1525000000.0 0.2494774529522703 0.8676725423298189
1528750000.0 0.2699435771195004 0.8615155920695534
1532500000.0 0.2880354571446434 0.853979376548853
1536250000.0 0.3062644455263088 0.849640014959271
1540000000.0 0.3238304365970217 0.8448591209086942
1543750000.0 0.34193323472453413 0.8390239968869495
1547500000.0 0.37650212565282365 0.8362514830328694
1551250000.0 0.3916057910084148 0.828891200054118
1555000000.0 0.4087719876318517 0.8222156955116816
1558750000.0 0.42688147684732997 0.8142387100991911
1562500000.0 0.4462729651844681 0.806714515979669
1566250000.0 0.4686035759198646 0.7993861386059804
1570000000.0 0.4942258891337921 0.7893312493871766
1573750000.0 0.5086196286099671 0.7604134400064047
1577500000.0 0.527571907700807 0.7490096296675727
1581250000.0 0.5459945381172752 0.7364122802978688
1585000000.0 0.5654537095514663 0.7205291775493115
1588750000.0 0.5815322965911394 0.7049662221669202
1592500000.0 0.6014203842637962 0.690095692103989
1596250000.0 0.6102595519906994 0.6765398201884343
1600000000.0 0.6291672815738829 0.6612705776371494
1603750000.0 0.6441882881030215 0.6441970755737818
1607500000.0 0.6592885450590914 0.6276977300795249
1611250000.0 0.6741226285867923 0.6117877784175567
1615000000.0 0.687132759480159 0.5938619996579758
1618750000.0 0.7007287777730082 0.576357614706492
1622500000.0 0.7145233922347963 0.5601281950009751
1626250000.0 0.7264645145224289 0.5406465318925227
1630000000.0 0.7405338957036012 0.5216137397827635
1633750000.0 0.751447486034696 0.502823689994223
1637500000.0 0.7637749588843539 0.4837952995908441
1641250000.0 0.7749123872005848 0.46498588585637124
1645000000.0 0.7854596469760496 0.4460782489726912
1648750000.0 0.7948025648296031 0.42525530292313374
1652500000.0 0.8055774015798522 0.40566196400500687
1656250000.0 0.8150956377606244 0.3856077835439542
1660000000.0 0.8246462352641729 0.3653024412771445
1663750000.0 0.8316729020817845 0.34477663544615755
1667500000.0 0.8401105004205569 0.32342116512175595
1671250000.0 0.8471000974025504 0.30249693278648526
1675000000.0 0.853107417390156 0.2820746075198576
1678750000.0 0.8608272237050474 0.2601217530792834
1682500000.0 0.8650378650344372 0.23971858087714618
1686250000.0 0.8702022245973282 0.21848400604214854
1690000000.0 0.8751577399916899 0.19733631968788648
1693750000.0 0.8795015761507315 0.17651408537661284
1697500000.0 0.8821104705782861 0.15493458503565433
1701250000.0 0.8855271102032762 0.13313686645693992
1705000000.0 0.8869347214926679 0.11169330784258169
1708750000.0 0.8895258068077997 0.09132276227149194
1712500000.0 0.8903014874915456 0.0699324422579396
1716250000.0 0.8923786609217326 0.0498481702897807
1720000000.0 0.8932243659195388 0.029299236472669826
1723750000.0 0.893285045758049 0.009038395141662159
1727500000.0 0.8938425902901207 -0.011642232904971739
1731250000.0 0.8927699715352578 -0.032932610243399954
1735000000.0 0.8919026559892855 -0.05276499669821336
1738750000.0 0.8900389076928605 -0.07288699803412166
1742500000.0 0.8902314232714778 -0.09329490469485044
1746250000.0 0.8869399108571465 -0.11376930802212012
1750000000.0 0.8844968945274558 -0.1335692787800267
1753750000.0 0.8804367121848995 -0.15253895635058792
1757500000.0 0.877269806286529 -0.17370160811089091
1761250000.0 0.873767319817182 -0.19220302322108263
1765000000.0 0.8688035314274147 -0.2124916940033445
1768750000.0 0.8632987690604763 -0.2313422357191306
1772500000.0 0.8578709109838139 -0.24905981467509197
1776250000.0 0.8535755712572499 -0.26800635360738023
1780000000.0 0.8464328197617845 -0.28704540419011576
1783750000.0 0.84015790706262 -0.30500222687674217
1787500000.0 0.8344551323394065 -0.32281592321570296
1791250000.0 0.826554246401135 -0.3404961386103197
1795000000.0 0.8196485150366697 -0.35621202622487846
1798750000.0 0.8116347936734116 -0.37314187954041644
1802500000.0 0.8030431335973924 -0.3896274461657563
1806250000.0 0.7958236516157393 -0.4059588339006409
1810000000.0 0.785967830491668 -0.4210684350256233
1813750000.0 0.7783821867353894 -0.43733815209402893
1817500000.0 0.7691300374623253 -0.4525697605399185
1821250000.0 0.7608401797035131 -0.4679201090375475
1825000000.0 0.7503690317743434 -0.482643632681654
1828750000.0 0.7419268367960503 -0.497284842031926
1832500000.0 0.731949126828028 -0.5111151025478988
1836250000.0 0.7219406086441817 -0.5266715662154918
1840000000.0 0.7113718807588659 -0.5409841736060416
1843750000.0 0.7005457632744576 -0.5548942371738588
1847500000.0 0.6900691481687884 -0.5683050085601837
1851250000.0 0.6789979105999968 -0.582228065972051
1855000000.0 0.6677884864363316 -0.5952772325953943
1858750000.0 0.6555607898718374 -0.6078590619189348
1862500000.0 0.6442408697978865 -0.6201290806124065
1866250000.0 0.6327836568248675 -0.6320471983404938
1870000000.0 0.6214061470217528 -0.6438377119619169
1873750000.0 0.6094061597528939 -0.6558212933185343
1877500000.0 0.5955062700692582 -0.6664828076023331
1881250000.0 0.5832392474559245 -0.6784653533558773
1885000000.0 0.5707346440554923 -0.6884913425534611
1888750000.0 0.5579969948259687 -0.698964944966175
1892500000.0 0.545159874375378 -0.708955313963117
1896250000.0 0.5331632372548956 -0.7186273859678496
1900000000.0 0.5196284834553856 -0.7279113403541125
1903750000.0 0.5069338756649417 -0.7380826994268379
1907500000.0 0.49436370467319185 -0.7470883541471995
1911250000.0 0.4807733457115373 -0.7568227566810697
1915000000.0 0.467262963846067 -0.764419206194895
1918750000.0 0.4537507981633692 -0.7729183963688164
1922500000.0 0.44021834157641837 -0.7804977672200644
1926250000.0 0.4268660890894906 -0.788802099233264
1930000000.0 0.41287294304100175 -0.7955576075966702
1933750000.0 0.39930557226713925 -0.8025671935731433
1937500000.0 0.38575605644181254 -0.8094701592293194
1941250000.0 0.37182106597313486 -0.815571592781518
1945000000.0 0.3576007984385327 -0.8221116834424118
1948750000.0 0.3439503372347714 -0.8275937251340184
1952500000.0 0.3304145497467927 -0.8333087585533855
1956250000.0 0.3164826424962833 -0.8381484188778111
1960000000.0 0.302588888525402 -0.8434933226767761
1963750000.0 0.28863247738124836 -0.8479514938413129
1967500000.0 0.2744576264045403 -0.8525645057279821
1971250000.0 0.25962117404220597 -0.8567454608948522
1975000000.0 0.2457443682381108 -0.8603820904353234
1978750000.0 0.2320640176967128 -0.8637177470462812
1982500000.0 0.2183320481544018 -0.8676698524848543
1986250000.0 0.20453460843855234 -0.8707131355571068
1990000000.0 0.19077016056954987 -0.8730618470273763
1993750000.0 0.1770631069440477 -0.875553650741759
1997500000.0 0.16385249683502393 -0.8772952163490266
2001250000.0 0.15003669245151413 -0.8796914031292129
2005000000.0 0.136459663495186 -0.8811878027129294
2008750000.0 0.12226822832164311 -0.8826757613506375
2012500000.0 0.10889388193865457 -0.8837009930292629
2016250000.0 0.0954184457109148 -0.8839998827829751
2020000000.0 0.08224257860935981 -0.8843213889725625
2023750000.0 0.06811127908723957 -0.8848773210215545
2027500000.0 0.05448830150357406 -0.8850717962028364
2031250000.0 0.041252188827920436 -0.8852189145228639
2035000000.0 0.027534738403966925 -0.8844513024763183
2038750000.0 0.014248423571687686 -0.8836179677298819
2042500000.0 0.0007551123228039212 -0.8815225525930709
2046250000.0 -0.011836919633643311 -0.8805908176023021
2050000000.0 -0.024422394897132677 -0.878650383149332
2053750000.0 -0.037172439137471154 -0.877832941019057
2057500000.0 -0.05020359040709371 -0.8762447140544132
2061250000.0 -0.06279465934001968 -0.8739516163968968
2065000000.0 -0.07642201118062202 -0.8718850780596455
2068750000.0 -0.08976984458028366 -0.8687016247254976
2072500000.0 -0.10270351457896393 -0.864407016471713
2076250000.0 -0.11478759996001617 -0.8608216902417062
2080000000.0 -0.12697909044937777 -0.8579706987787162
2083750000.0 -0.13875695931549847 -0.8545649518533736
2087500000.0 -0.15054209555561832 -0.8508065470451629
2091250000.0 -0.1632423543543125 -0.847108080646146
2095000000.0 -0.1746638134125885 -0.8436582513496698
2098750000.0 -0.18752758420118806 -0.8393211974395219
2102500000.0 -0.19902171598543464 -0.8344801966792553
2106250000.0 -0.21119873799930242 -0.8289809704832214
2110000000.0 -0.22271489353133492 -0.8233683685053774
2113750000.0 -0.23384510941050585 -0.8172342195023796
2117500000.0 -0.24443736140221403 -0.8111689364432483
2121250000.0 -0.25516384157559147 -0.8054615995524022
2125000000.0 -0.26538243004057216 -0.7992390565237604
2128750000.0 -0.27600361716725774 -0.7935780216740624
2132500000.0 -0.2868015523240374 -0.7869157013910519
2136250000.0 -0.2972072725258784 -0.7802769899005528
2140000000.0 -0.30688464975427143 -0.7732918843730564
2143750000.0 -0.31636694589020536 -0.7662840979262897
2147500000.0 -0.32630945496817754 -0.759105562777973
2151250000.0 -0.33570147412941503 -0.751664633964947
2155000000.0 -0.3450735874027099 -0.7437634081283806
2158750000.0 -0.3540498211404886 -0.7357075823659938
2162500000.0 -0.36248738785590623 -0.7276700472794392
2166250000.0 -0.3711090114046366 -0.7193455492366855
2170000000.0 -0.37932596050645057 -0.7112409053507454
2173750000.0 -0.3870917367563964 -0.7020696311345365
2177500000.0 -0.39464534686750785 -0.6935060633874648
2181250000.0 -0.4020377841065422 -0.6850164971792201
2185000000.0 -0.4092807750901528 -0.6767321084299642
2188750000.0 -0.4171387288199319 -0.6676725088386442
2192500000.0 -0.42434591634985214 -0.6581917809829708
2196250000.0 -0.43092145312180485 -0.6493831691207489
2200000000.0 -0.4379370832654392 -0.6401138284889504
2203750000.0 -0.44523469468230253 -0.630516411211004
2207500000.0 -0.4518747172933052 -0.6196086273521497
2211250000.0 -0.4577492673975278 -0.6088402607883722
2215000000.0 -0.4621489548125379 -0.5983330668598055
2218750000.0 -0.4673819593133102 -0.5881645235540032
2222500000.0 -0.4719899014116554 -0.5778858351818055
2226250000.0 -0.47644651023805645 -0.5674430586457406
2230000000.0 -0.4810644862516063 -0.5571934335511868
2233750000.0 -0.48579678817617206 -0.546868750891518
2237500000.0 -0.49041590280723424 -0.535378563552853
2241250000.0 -0.4940056356128406 -0.5240245734872574
2245000000.0 -0.4973102397012398 -0.5126746493157627
2248750000.0 -0.5010821071226649 -0.500888107970851
2252500000.0 -0.5041189091087979 -0.48820542755841834
2256250000.0 -0.5066102150781189 -0.4747677364437791
2260000000.0 -0.5081101257594397 -0.46115091961586785
2263750000.0 -0.5074462685774344 -0.44782473938393486
2267500000.0 -0.5067695712264219 -0.43587109852766615
2271250000.0 -0.5064404173275361 -0.42374845920333054
2275000000.0 -0.5054887482759709 -0.4116618187583806
2278750000.0 -0.5034099991858014 -0.3996606516194533
2282500000.0 -0.5015218645158748 -0.38838724940968394
2286250000.0 -0.4998459217768241 -0.37671623188333614
2290000000.0 -0.49758724878663824 -0.3645156880009687
2293750000.0 -0.4946916727344823 -0.35236009831893716
2297500000.0 -0.49077269774487275 -0.3406551222234834
2301250000.0 -0.4864859008019417 -0.3284631590289845
2305000000.0 -0.48155200500818107 -0.318160258072607
2308750000.0 -0.4776315423155057 -0.30638452526991433
2312500000.0 -0.4727380862474384 -0.29461411180966013
2316250000.0 -0.4675787893476992 -0.2828850484448564
2320000000.0 -0.45983090452900677 -0.27093165053934787
2323750000.0 -0.4508012391954828 -0.2613620376077223
2327500000.0 -0.4433493050290204 -0.25273654122111666
2331250000.0 -0.43624600552951676 -0.2433026106036596
2335000000.0 -0.4277169573438253 -0.2340119255358621
2338750000.0 -0.4179696221840003 -0.22570401932768636
2342500000.0 -0.40916063784404344 -0.2184118417604698
2346250000.0 -0.40073705555281874 -0.21036614198384668
2350000000.0 -0.39142563017939624 -0.2018221859439553
2353750000.0 -0.3794943270672219 -0.1944148519844778
2357500000.0 -0.3675472644293083 -0.18817104310703672
2361250000.0 -0.35476210861613455 -0.1832884620141741
2365000000.0 -0.3424074620162127 -0.179735679683162
2368750000.0 -0.3297150983303932 -0.17701216953309937
2372500000.0 -0.3181314445872669 -0.17534116846595504
2376250000.0 -0.30592240657483255 -0.1736146318278413
2380000000.0 -0.2931301936171962 -0.17348577781802055
2383750000.0 -0.2815323287732502 -0.17548467131523435
2387500000.0 -0.27180484361513413 -0.17643177747843558
2391250000.0 -0.2610193969072503 -0.17731598793893957
2395000000.0 -0.24892910230959714 -0.17898805198501944
2398750000.0 -0.2382022278674593 -0.1832316067952039
2402500000.0 -0.22899056398775228 -0.18677626262115082
2406250000.0 -0.21973758172191385 -0.19037792854148688
2410000000.0 -0.21100488592589867 -0.19369870570958309
2413750000.0 -0.20132333129587016 -0.19665081196913486
